
**** 09/28/18 19:44:36 *********** Evaluation PSpice (Nov 1999) **************

 * D:\EPSA\STUF2019\EL - Electrical\Autre\BSPD\Pspice\test1.sch


 ****     CIRCUIT DESCRIPTION


******************************************************************************




* Schematics Version 9.1 - Web Update 1
* Fri Sep 28 19:44:31 2018



** Analysis setup **
.tran 0ns 2s
.STMLIB "test1.stl"


* From [PSPICE NETLIST] section of pspiceev.ini:
.lib "D:\cours\STI\eea.lib"
.lib "nom.lib"

.INC "test1.net"

**** INCLUDING test1.net ****
* Schematics Netlist *



C_C2         0 $N_0001  0.01u  
C_C1         0 $N_0002  1n  
R_R3         $N_0002 +5v  500k  
X_U1A         $N_0004 $N_0005 +5v 0 $N_0003 LM324
X_U3A         $N_0003 $N_0006 $G_DPWR $G_DGND 7405 PARAMS:
+ IO_LEVEL=0 MNTYMXDLY=0
X_X2         0 $N_0006 $N_0007 $N_0003 $N_0001 $N_0002 $N_0002 +5v 555D PARAMS:
+  MAXFREQ=3E6
R_R4         0 $N_0007  1k  
R_R2         0 $N_0005  1k  
R_R1         $N_0005 +5v  1k  
V_V4         $N_0004 0  
+PULSE 0 5 0 

**** RESUMING test1.cir ****
.INC "test1.als"



**** INCLUDING test1.als ****
* Schematics Aliases *

.ALIASES
C_C2            C2(1=0 2=$N_0001 )
C_C1            C1(1=0 2=$N_0002 )
R_R3            R3(1=$N_0002 2=+5v )
X_U1A           U1A(+=$N_0004 -=$N_0005 V+=+5v V-=0 OUT=$N_0003 )
X_U3A           U3A(A=$N_0003 Y=$N_0006 PWR=$G_DPWR GND=$G_DGND )
X_X2            X2(GND=0 TRIGGER=$N_0006 OUTPUT=$N_0007 RESET=$N_0003
+  CONTROL=$N_0001 THRESHOLD=$N_0002 DISCHARGE=$N_0002 VCC=+5v )
R_R4            R4(1=0 2=$N_0007 )
R_R2            R2(1=0 2=$N_0005 )
R_R1            R1(1=$N_0005 2=+5v )
V_V4            V4(+=$N_0004 -=0 )
_    _($G_DGND=$G_DGND)
_    _($G_DPWR=$G_DPWR)
_    _(+5v=+5v)
.ENDALIASES


**** RESUMING test1.cir ****
.probe


.END


**** Generated AtoD and DtoA Interfaces ****

*
* Analog/Digital interface for node $N_0007
*
* Moving X_X2.u1:Q1 from analog node $N_0007 to new digital node $N_0007$DtoA
X$$N_0007_DtoA1
+ $N_0007$DtoA
+ $N_0007
+ +5v
+ 0
+ dtoa_555
+       PARAMS: DRVH=  96.4   DRVL= 104    CAPACITANCE=   0     
*
* Analog/Digital interface for node $N_0003
*
* Moving X_X2.u1:CLRBAR from analog node $N_0003 to new digital node $N_0003$AtoD
X$$N_0003_AtoD1
+ $N_0003
+ $N_0003$AtoD
+ +5v
+ 0
+ atod_555
+       PARAMS: CAPACITANCE=   0     
* Moving X_U3A.U1:IN1 from analog node $N_0003 to new digital node $N_0003$AtoD2
X$$N_0003_AtoD2
+ $N_0003
+ $N_0003$AtoD2
+ $G_DPWR
+ $G_DGND
+ AtoD_STD
+       PARAMS: CAPACITANCE=   0     
*
* Analog/Digital interface for node X_X2.qb
*
* Moving X_X2.u1:QBAR1 from analog node X_X2.qb to new digital node X_X2.qb$DtoA
X$X_X2.qb_DtoA1
+ X_X2.qb$DtoA
+ X_X2.qb
+ +5v
+ 0
+ dtoa_555
+       PARAMS: DRVH=  96.4   DRVL= 104    CAPACITANCE=   0     
*
* Analog/Digital interface for node $N_0006
*
* Moving X_U3A.U1:OUT1 from analog node $N_0006 to new digital node $N_0006$DtoA
X$$N_0006_DtoA1
+ $N_0006$DtoA
+ $N_0006
+ $G_DPWR
+ $G_DGND
+ DtoA_STD_OC
+       PARAMS: DRVH=   1.0000E+06 DRVL= 104    CAPACITANCE=   0     
*
* Analog/Digital interface power supply subcircuits
*

X$DIGIFPWR 0 DIGIFPWR

**** 09/28/18 19:44:36 *********** Evaluation PSpice (Nov 1999) **************

 * D:\EPSA\STUF2019\EL - Electrical\Autre\BSPD\Pspice\test1.sch


 ****     Diode MODEL PARAMETERS


******************************************************************************




               X_U1A.dx        D74CLMP         D74             
          IS  800.000000E-18    1.000000E-15  100.000000E-18 
          RS    1               2              25            
         CJO                    2.000000E-12    2.000000E-12 


**** 09/28/18 19:44:36 *********** Evaluation PSpice (Nov 1999) **************

 * D:\EPSA\STUF2019\EL - Electrical\Autre\BSPD\Pspice\test1.sch


 ****     BJT MODEL PARAMETERS


******************************************************************************




               X_U1A.qx        Q74             
               PNP             NPN             
          IS  800.000000E-18  100.000000E-18 
          BF  166.7            49            
          NF    1               1            
         ISE                  100.000000E-18 
          BR    1                .03         
          NR    1               1            
         ISC                  400.000000E-18 
          RB                   50            
          RC                   20            
         CJE                    1.000000E-12 
         VJE                     .9          
         MJE                     .5          
         CJC                  500.000000E-15 
         VJC                     .8          
         CJS                    3.000000E-12 
         VJS                     .7          
         MJS                     .33         
          TF                  200.000000E-12 
          TR                   10.000000E-09 
          CN    2.2             2.42         
           D     .52             .87         


**** 09/28/18 19:44:36 *********** Evaluation PSpice (Nov 1999) **************

 * D:\EPSA\STUF2019\EL - Electrical\Autre\BSPD\Pspice\test1.sch


 ****     MOSFET MODEL PARAMETERS


******************************************************************************




               X_X2.nchan      
               NMOS            
       LEVEL    1            
           L  100.000000E-06 
           W  100.000000E-06 
         VTO    0            
          KP   20.000000E-06 
       GAMMA    0            
         PHI     .6          
      LAMBDA    0            
          IS   10.000000E-15 
          JS    0            
          PB     .8          
        PBSW     .8          
          CJ    0            
        CJSW    0            
        CGSO    1.000000E-12 
        CGDO    1.000000E-12 
        CGBO    1.000000E-12 
         TOX    0            
          XJ    0            
       UCRIT   10.000000E+03 
      DIOMOD    1            
         VFB    0            
        LETA    0            
        WETA    0            
          U0    0            
        TEMP    0            
         VDD    0            
       XPART    0            


**** 09/28/18 19:44:36 *********** Evaluation PSpice (Nov 1999) **************

 * D:\EPSA\STUF2019\EL - Electrical\Autre\BSPD\Pspice\test1.sch


 ****     Digital Input MODEL PARAMETERS


******************************************************************************




               din555          DIN74_OC        
        FILE DSO_DTOA        DSO_DTOA        
      FORMAT    6               6            
    TIMESTEP  100.000000E-12  100.000000E-12 
      S0NAME 0               0               
       S0TSW  700.000000E-12    3.500000E-09 
       S0RLO  100               7.13         
       S0RHI    1.000000E+06  389            
      S1NAME 1               1               
       S1TSW  700.000000E-12    5.500000E-09 
       S1RLO    1.000000E+06  200.000000E+03 
       S1RHI  300             200.000000E+03 
      S2NAME x               X               
       S2TSW  700.000000E-12    3.500000E-09 
       S2RLO  200              42.9          
       S2RHI  200             116            
      S3NAME r               R               
       S3TSW  700.000000E-12    3.500000E-09 
       S3RLO  200              42.9          
       S3RHI  200             116            
      S4NAME f               F               
       S4TSW  700.000000E-12    3.500000E-09 
       S4RLO  200              42.9          
       S4RHI  200             116            
      S5NAME z               Z               
       S5TSW  700.000000E-12    5.500000E-09 
       S5RLO  200.000000E+03  200.000000E+03 
       S5RHI  200.000000E+03  200.000000E+03 


**** 09/28/18 19:44:36 *********** Evaluation PSpice (Nov 1999) **************

 * D:\EPSA\STUF2019\EL - Electrical\Autre\BSPD\Pspice\test1.sch


 ****     Digital Output MODEL PARAMETERS


******************************************************************************




               X_X2.cmp        do555           DO74            
        FILE DSO_ATOD        DSO_ATOD        DSO_ATOD        
      FORMAT    6               6               6            
     CHGONLY    1               1               1            
    TIMESTEP  100.000000E-12  100.000000E-12  100.000000E-12 
      S0NAME 0               X               X               
       S0VHI                    2               2            
       S0VLO -500                .8              .8          
      S1NAME 1               0               0               
       S1VHI  500                .8              .8          
       S1VLO                   -1.5            -1.5          
      S2NAME                 R               R               
       S2VHI                    1.4             1.4          
       S2VLO                     .8              .8          
      S3NAME                 R               R               
       S3VHI                    2               2            
       S3VLO                    1.3             1.3          
      S4NAME                 X               X               
       S4VHI                    2               2            
       S4VLO                     .8              .8          
      S5NAME                 1               1               
       S5VHI                   50               7            
       S5VLO                    2               2            
      S6NAME                 F               F               
       S6VHI                    2               2            
       S6VLO                    1.3             1.3          
      S7NAME                 F               F               
       S7VHI                    1.4             1.4          
       S7VLO                     .8              .8          


**** 09/28/18 19:44:36 *********** Evaluation PSpice (Nov 1999) **************

 * D:\EPSA\STUF2019\EL - Electrical\Autre\BSPD\Pspice\test1.sch


 ****     Digital Gate MODEL PARAMETERS


******************************************************************************




               D_05            
      TPLHMN   16.000000E-09 
      TPLHTY   40.000000E-09 
      TPLHMX   55.000000E-09 
      TPHLMN    3.200000E-09 
      TPHLTY    8.000000E-09 
      TPHLMX   15.000000E-09 


**** 09/28/18 19:44:36 *********** Evaluation PSpice (Nov 1999) **************

 * D:\EPSA\STUF2019\EL - Electrical\Autre\BSPD\Pspice\test1.sch


 ****     Digital Gated FF MODEL PARAMETERS


******************************************************************************




               X_X2.t_srff     
    TPDQLHMN    0            
    TPDQLHTY    0            
    TPDQLHMX    0            
    TPDQHLMN    0            
    TPDQHLTY    0            
    TPDQHLMX    0            
    TPGQLHMN    0            
    TPGQLHTY    0            
    TPGQLHMX    0            
    TPGQHLMN    0            
    TPGQHLTY    0            
    TPGQHLMX    0            
   TPPCQLHMN   48.000000E-09 
   TPPCQLHTY  120.000000E-09 
   TPPCQLHMX  192.000000E-09 
   TPPCQHLMN    0            
   TPPCQHLTY    0            
   TPPCQHLMX    0            
      TWGHMN    0            
      TWGHTY    0            
      TWGHMX    0            
     TWPCLMN    0            
     TWPCLTY    0            
     TWPCLMX    0            
     TSUDGMN    0            
     TSUDGTY    0            
     TSUDGMX    0            
   TSUPCGHMN    0            
   TSUPCGHTY    0            
   TSUPCGHMX    0            
      THDGMN    0            
      THDGTY    0            
      THDGMX    0            


**** 09/28/18 19:44:36 *********** Evaluation PSpice (Nov 1999) **************

 * D:\EPSA\STUF2019\EL - Electrical\Autre\BSPD\Pspice\test1.sch


 ****     Digital Delay Line MODEL PARAMETERS


******************************************************************************




               X_X2.dlymod     
       DLYMN  166.666700E-09 
       DLYTY  166.666700E-09 
       DLYMX  166.666700E-09 


**** 09/28/18 19:44:36 *********** Evaluation PSpice (Nov 1999) **************

 * D:\EPSA\STUF2019\EL - Electrical\Autre\BSPD\Pspice\test1.sch


 ****     Digital IO  MODEL PARAMETERS


******************************************************************************




               X_X2.io_555     IO_STD_OC       io_std          io_stm          
        DRVL  104             104             104               0            
        DRVH   96.4             1.000000E+06   96.4             0            
       AtoD1 atod_555        AtoD_STD        AtoD_STD                        
       AtoD2 atod_555        AtoD_STD_NX     AtoD_STD_NX                     
       AtoD3 atod_555        AtoD_STD        AtoD_STD                        
       AtoD4 atod_555        AtoD_STD_NX     AtoD_STD_NX                     
       DtoA1 dtoa_555        DtoA_STD_OC     DtoA_STD        DtoA_STM        
       DtoA2 dtoa_555        DtoA_STD_OC     DtoA_STD        DtoA_STM        
       DtoA3 dtoa_555        DtoA_STD_OC     DtoA_STD        DtoA_STM        
       DtoA4 dtoa_555        DtoA_STD_OC     DtoA_STD        DtoA_STM        
      TSWHL1                    2.617000E-09    1.373000E-09                 
      TSWHL2                    2.598000E-09    1.346000E-09                 
      TSWHL3                    2.747000E-09    1.511000E-09                 
      TSWHL4                    2.732000E-09    1.487000E-09                 
      TSWLH1                    1.432000E-09    3.382000E-09                 
      TSWLH2                    1.460000E-09    3.424000E-09                 
      TSWLH3                    1.589000E-09    3.517000E-09                 
      TSWLH4                    1.615000E-09    3.564000E-09                 
       TPWRT  100.000000E+03  100.000000E+03  100.000000E+03  100.000000E+03 


**** 09/28/18 19:44:36 *********** Evaluation PSpice (Nov 1999) **************

 * D:\EPSA\STUF2019\EL - Electrical\Autre\BSPD\Pspice\test1.sch


 ****     INITIAL TRANSIENT SOLUTION       TEMPERATURE =   27.000 DEG C


******************************************************************************



 NODE   VOLTAGE     NODE   VOLTAGE     NODE   VOLTAGE     NODE   VOLTAGE


(  +5v)     .7062  ($G_DGND)    0.0000                   ($G_DPWR)    5.0000    

($N_0001)     .4708                   ($N_0002) 200.0E-06                       

($N_0003)    -.0721                   ($N_0004)    0.0000                       

($N_0005)     .3531                   ($N_0006)    2.5000                       

($N_0007)     .5431                   (X_U1A.6)    1.4995                       

(X_U1A.7)    -.1259                   (X_U1A.8)    -.1259                       

(X_U1A.9)    0.0000                   (X_X2.qb)     .7060                       

(X_U1A.10)     .6396                  (X_U1A.11) 279.4E-09                      

(X_U1A.12)     .0795                  (X_U1A.13)     .6396                      

(X_U1A.14)     .6118                  (X_U1A.53)    -.7938                      

(X_U1A.54)     .6500                  (X_U1A.90)   -1.0767                      

(X_U1A.91)   40.0000                  (X_U1A.92)  -40.0000                      

(X_U1A.99)     .3531                  (X_X2.botm)     .2354                     

(X$$N_0003_AtoD2.1)     .0194         (X$$N_0003_AtoD2.2)     .0097             

(X$$N_0003_AtoD2.3)     .7569         



 DGTL NODE : STATE  DGTL NODE : STATE  DGTL NODE : STATE  DGTL NODE : STATE


( X_X2.rd) : 0     ($N_0007$DtoA) : 1                    ( X_X2.hi) : 1         

($N_0003$AtoD) : 0                    ($N_0006$DtoA) : Z                        

(X_X2.strt) : 0    (  X_X2.r) : 0     (X_X2.qb$DtoA) : 1                        

(  X_X2.s) : 0     ( X_X2.sd) : 0     ($N_0003$AtoD2) : 0                   




    VOLTAGE SOURCE CURRENTS
    NAME         CURRENT

    V_V4         8.985E-08
    X_U1A.vb     1.500E-05
    X_U1A.vc    -1.010E-03
    X_U1A.ve    -1.026E-03
    X_U1A.vlim  -1.077E-03
    X_U1A.vlp   -4.108E-11
    X_U1A.vln   -3.893E-11
    X$DIGIFPWR.VDPWR  -1.078E-03
    X$DIGIFPWR.VDGND  -1.066E-03

    TOTAL POWER DISSIPATION   7.57E-03  WATTS



          JOB CONCLUDED

          TOTAL JOB TIME             .05
